! BLM15GG471SN1
# Hz S RI R 50
!Freq.(Hz) S11(Real) S11(Imag) S21(Real) S21(Imag) S12(Real) S12(Imag) S22(Real) S22(Imag)
1000000 0.03454014586679761 0.12662176506953113 0.9654598541332023 -0.12662176506953116 0.9654598541332023 -0.12662176506953116 0.03454014586679761 0.12662176506953113
1020217.5806586457 0.03552427245975529 0.12894562052959477 0.9644757275402447 -0.12894562052959477 0.9644757275402447 -0.12894562052959477 0.03552427245975529 0.12894562052959477
1040843.9118849806 0.03654379038716493 0.13130319822926456 0.9634562096128352 -0.1313031982292646 0.9634562096128352 -0.1313031982292646 0.03654379038716493 0.13130319822926456
1061887.2576265757 0.037599790407851136 0.13369448814679347 0.9624002095921488 -0.13369448814679344 0.9624002095921488 -0.13369448814679344 0.037599790407851136 0.13369448814679347
1083356.0489080292 0.03869338344952781 0.13611944896300743 0.9613066165504722 -0.1361194489630074 0.9613066165504722 -0.1361194489630074 0.03869338344952781 0.13611944896300743
1105258.8872088592 0.03982569996293713 0.13857800649525606 0.960174300037063 -0.13857800649525606 0.960174300037063 -0.13857800649525606 0.03982569996293713 0.13857800649525606
1127604.5479096894 0.04099788918402289 0.14107005211584545 0.9590021108159771 -0.14107005211584545 0.9590021108159771 -0.14107005211584545 0.04099788918402289 0.14107005211584545
1150401.9838081095 0.04221111830005027 0.14359544115985773 0.9577888816999497 -0.1435954411598577 0.9577888816999497 -0.1435954411598577 0.04221111830005027 0.14359544115985773
1173660.328705616 0.04346657151575994 0.1461539913277524 0.9565334284842402 -0.1461539913277524 0.9565334284842402 -0.1461539913277524 0.04346657151575994 0.1461539913277524
1197388.9010670746 0.04476544901586883 0.1487454810886467 0.955234550984131 -0.1487454810886467 0.955234550984131 -0.1487454810886467 0.04476544901586883 0.1487454810886467
1221597.2077541656 0.04610896582050843 0.15136964809068243 0.9538910341794914 -0.15136964809068243 0.9538910341794914 -0.15136964809068243 0.04610896582050843 0.15136964809068243
1246294.947834312 0.04749835053052276 0.15402618758539066 0.9525016494694771 -0.15402618758539066 0.9525016494694771 -0.15402618758539066 0.04749835053052276 0.15402618758539066
1271492.016466615 0.04893484395994306 0.15671475087347805 0.9510651560400569 -0.15671475087347805 0.9510651560400569 -0.15671475087347805 0.04893484395994306 0.15671475087347805
1297198.5088663532 0.050419697653408695 0.1594349437799479 0.9495803023465912 -0.1594349437799479 0.9495803023465912 -0.1594349437799479 0.050419697653408695 0.1594349437799479
1323424.7243496338 0.051954172286823815 0.16218632516695095 0.9480458277131761 -0.16218632516695092 0.9480458277131761 -0.16218632516695092 0.051954172286823815 0.16218632516695095
1350181.1704598186 0.053539535950125214 0.1649684054932168 0.9464604640498748 -0.1649684054932168 0.9464604640498748 -0.1649684054932168 0.053539535950125214 0.1649684054932168
1377478.5671773748 0.05517706231168975 0.16778064542934049 0.9448229376883102 -0.16778064542934046 0.9448229376883102 -0.16778064542934046 0.05517706231168975 0.16778064542934049
1405327.8512148394 0.05686802866463157 0.1706224545385821 0.9431319713353684 -0.1706224545385821 0.9431319713353684 -0.1706224545385821 0.05686802866463157 0.1706224545385821
1433740.1803986167 0.05861371385602957 0.17349319003317487 0.9413862861439705 -0.17349319003317487 0.9413862861439705 -0.17349319003317487 0.05861371385602957 0.17349319003317487
1462726.9381393674 0.060415396100981865 0.17639215561641372 0.9395846038990182 -0.17639215561641372 0.9395846038990182 -0.17639215561641372 0.060415396100981865 0.17639215561641372
1492299.737992774 0.06227435068430344 0.17931860042100276 0.9377256493156966 -0.17931860042100276 0.9377256493156966 -0.17931860042100276 0.06227435068430344 0.17931860042100276
1522470.428312519 0.06419184755366523 0.1822717180542736 0.935808152446335 -0.1822717180542736 0.935808152446335 -0.1822717180542736 0.06419184755366523 0.1822717180542736
1553251.0969973304 0.06616914880900646 0.1852506457609241 0.9338308511909935 -0.18525064576092412 0.9338308511909935 -0.18525064576092412 0.06616914880900646 0.1852506457609241
1584654.076334004 0.06820750609413719 0.18825446371387078 0.9317924939058629 -0.18825446371387078 0.9317924939058629 -0.18825446371387078 0.06820750609413719 0.18825446371387078
1616691.9479383389 0.07030815789756997 0.19128219444363787 0.9296918421024302 -0.1912821944436378 0.9296918421024302 -0.1912821944436378 0.07030815789756997 0.19128219444363787
1649377.5477959653 0.07247232677077256 0.19433280241641865 0.9275276732292274 -0.19433280241641868 0.9275276732292274 -0.19433280241641868 0.07247232677077256 0.19433280241641865
1682723.9714050898 0.0747012164732058 0.19740519377053006 0.9252987835267942 -0.19740519377053 0.9252987835267942 -0.19740519377053 0.0747012164732058 0.19740519377053006
1716744.5790232092 0.07699600905468296 0.2004982162204217 0.9230039909453173 -0.2004982162204217 0.9230039909453173 -0.2004982162204217 0.07699600905468296 0.2004982162204217
1751453.001019904 0.0793578618867542 0.20361065913671184 0.9206421381132458 -0.20361065913671178 0.9206421381132458 -0.20361065913671178 0.0793578618867542 0.20361065913671184
1786863.143337851 0.08178790465595336 0.20674125380986721 0.9182120953440467 -0.20674125380986721 0.9182120953440467 -0.20674125380986721 0.08178790465595336 0.20674125380986721
1822989.1930642454 0.08428723633283516 0.20988867390414842 0.9157127636671647 -0.20988867390414848 0.9157127636671647 -0.20988867390414848 0.08428723633283516 0.20988867390414842
1859845.6241148617 0.08685692213175357 0.21305153610728528 0.9131430778682464 -0.21305153610728528 0.9131430778682464 -0.21305153610728528 0.08685692213175357 0.21305153610728528
1897447.2030330333 0.0894979904772673 0.21622840098003832 0.9105020095227327 -0.21622840098003832 0.9105020095227327 -0.21622840098003832 0.0894979904772673 0.21622840098003832
1935808.994905876 0.09221142999388438 0.21941777400834392 0.9077885700061158 -0.21941777400834392 0.9077885700061158 -0.21941777400834392 0.09221142999388438 0.21941777400834392
1974946.3694001175 0.0949981865365491 0.22261810685913508 0.905001813463451 -0.2226181068591351 0.905001813463451 -0.2226181068591351 0.0949981865365491 0.22261810685913508
2014875.0069199642 0.09785916027981319 0.22582779883919718 0.9021408397201868 -0.22582779883919718 0.9021408397201868 -0.22582779883919718 0.09785916027981319 0.22582779883919718
2055610.904889458 0.10079520288399034 0.22904519855455852 0.8992047971160096 -0.22904519855455846 0.8992047971160096 -0.22904519855455846 0.10079520288399034 0.22904519855455852
2097170.3841618528 0.10380711475675028 0.23226860576595598 0.8961928852432496 -0.23226860576595595 0.8961928852432496 -0.23226860576595595 0.10380711475675028 0.23226860576595598
2139570.0955585684 0.10689564242854672 0.235496273433876 0.8931043575714532 -0.235496273433876 0.8931043575714532 -0.235496273433876 0.10689564242854672 0.235496273433876
2182827.0265403506 0.11006147605996555 0.2387264099445677 0.8899385239400344 -0.23872640994456765 0.8899385239400344 -0.23872640994456765 0.11006147605996555 0.2387264099445677
2226958.508013302 0.11330524709852026 0.2419571815062966 0.8866947529014797 -0.24195718150629655 0.8866947529014797 -0.24195718150629655 0.11330524709852026 0.2419571815062966
2271982.2212725184 0.11662752610158898 0.24518671470298228 0.883372473898411 -0.24518671470298228 0.883372473898411 -0.24518671470298228 0.11662752610158898 0.24518671470298228
2317916.205086105 0.12002882074107069 0.2484130991902641 0.8799711792589293 -0.2484130991902641 0.8799711792589293 -0.2484130991902641 0.12002882074107069 0.2484130991902641
2364778.8629224156 0.12350957400394481 0.2516343905170302 0.8764904259960553 -0.25163439051703024 0.8764904259960553 -0.25163439051703024 0.12350957400394481 0.2516343905170302
2412588.9703234104 0.12707016260122775 0.2548486130535338 0.8729298373987723 -0.25484861305353385 0.8729298373987723 -0.25484861305353385 0.12707016260122775 0.2548486130535338
2461365.682427083 0.1307108955958568 0.25805376300547644 0.8692891044041432 -0.2580537630054764 0.8692891044041432 -0.2580537630054764 0.1307108955958568 0.25805376300547644
2511128.5416419753 0.134432013257793 0.26124781149188103 0.8655679867422068 -0.26124781149188103 0.8655679867422068 -0.26124781149188103 0.134432013257793 0.26124781149188103
2561897.48547685 0.138233686152145 0.2644287076632676 0.861766313847855 -0.2644287076632676 0.861766313847855 -0.2644287076632676 0.138233686152145 0.2644287076632676
2613692.85452866 0.14211601446339625 0.26759438183560796 0.8578839855366038 -0.26759438183560796 0.8578839855366038 -0.26759438183560796 0.14211601446339625 0.26759438183560796
2666535.4006320196 0.14607902755589897 0.27074274861482356 0.853920972444101 -0.2707427486148236 0.853920972444101 -0.2707427486148236 0.14607902755589897 0.27074274861482356
2720446.295173432 0.15012268376771778 0.27387170998622984 0.8498773162322822 -0.27387170998622984 0.8498773162322822 -0.27387170998622984 0.15012268376771778 0.27387170998622984
2775447.137573615 0.15424687043170254 0.2769791583433566 0.8457531295682974 -0.2769791583433566 0.8457531295682974 -0.2769791583433566 0.15424687043170254 0.2769791583433566
2831559.963941318 0.1584514041144048 0.2800629794310233 0.8415485958855952 -0.2800629794310233 0.8415485958855952 -0.2800629794310233 0.1584514041144048 0.2800629794310233
2888807.255902094 0.16273603106015624 0.28312105517841324 0.8372639689398436 -0.28312105517841324 0.8372639689398436 -0.28312105517841324 0.16273603106015624 0.28312105517841324
2947211.9496055758 0.16710042782439352 0.2861512663992313 0.8328995721756065 -0.2861512663992313 0.8328995721756065 -0.2861512663992313 0.16710042782439352 0.2861512663992313
3006797.4449148513 0.17154420207716126 0.2891514953377932 0.8284557979228386 -0.2891514953377932 0.8284557979228386 -0.2891514953377932 0.17154420207716126 0.2891514953377932
3067587.6147816274 0.1760668935547659 0.2921196280421413 0.8239331064452341 -0.2921196280421413 0.8239331064452341 -0.2921196280421413 0.1760668935547659 0.2921196280421413
3129606.8148109377 0.1806679751348053 0.295053556547935 0.8193320248651947 -0.295053556547935 0.8193320248651947 -0.295053556547935 0.1806679751348053 0.295053556547935
3192879.893019226 0.18534685400737075 0.2979511808599628 0.8146531459926292 -0.29795118085996286 0.8146531459926292 -0.29795118085996286 0.18534685400737075 0.2979511808599628
3257432.1997897103 0.19010287291313913 0.3008104107215808 0.8098971270868609 -0.3008104107215808 0.8098971270868609 -0.3008104107215808 0.19010287291313913 0.3008104107215808
3323289.598029029 0.19493531141742712 0.30362916716620075 0.8050646885825729 -0.30362916716620075 0.8050646885825729 -0.30362916716620075 0.19493531141742712 0.30362916716620075
3390478.4735292196 0.19984338718810696 0.306405383849049 0.800156612811893 -0.306405383849049 0.800156612811893 -0.306405383849049 0.19984338718810696 0.306405383849049
3459025.745539199 0.20482625724464512 0.3091370081617513 0.7951737427553549 -0.3091370081617513 0.7951737427553549 -0.3091370081617513 0.20482625724464512 0.3091370081617513
3528958.8775499705 0.2098830191454498 0.31182200213679095 0.7901169808545504 -0.31182200213679095 0.7901169808545504 -0.31182200213679095 0.2098830191454498 0.31182200213679095
3600305.8882978815 0.21501271208125056 0.3144583431534712 0.7849872879187495 -0.31445834315347115 0.7849872879187495 -0.31445834315347115 0.21501271208125056 0.3144583431534712
3673095.3629903416 0.2202143178433848 0.3170440244615978 0.7797856821566153 -0.3170440244615978 0.7797856821566153 -0.3170440244615978 0.2202143178433848 0.3170440244615978
3747356.4647584967 0.22548676163765885 0.3195770555436006 0.7745132383623412 -0.3195770555436006 0.7745132383623412 -0.3195770555436006 0.22548676163765885 0.3195770555436006
3823118.9463414503 0.23082891271688089 0.32205546234015486 0.7691710872831191 -0.32205546234015486 0.7691710872831191 -0.32205546234015486 0.23082891271688089 0.32205546234015486
3900413.1620067055 0.23623958480820495 0.3244772873684372 0.7637604151917952 -0.3244772873684372 0.7637604151917952 -0.3244772873684372 0.23623958480820495 0.3244772873684372
3979270.0797116193 0.24171753631507253 0.32684058976588454 0.7582824636849275 -0.32684058976588454 0.7582824636849275 -0.32684058976588454 0.24171753631507253 0.32684058976588454
4059721.293510725 0.24726147027773113 0.3291434452956263 0.752738529722269 -0.3291434452956263 0.752738529722269 -0.3291434452956263 0.24726147027773113 0.3291434452956263
4141799.0362139 0.2528700340810094 0.33138394635253643 0.7471299659189906 -0.33138394635253643 0.7471299659189906 -0.33138394635253643 0.2528700340810094 0.33138394635253643
4225536.192300457 0.258541818903173 0.33356020201106074 0.741458181096827 -0.33356020201106074 0.741458181096827 -0.33356020201106074 0.258541818903173 0.33356020201106074
4310966.311094318 0.2642753589051845 0.3356703381575034 0.7357246410948155 -0.33567033815750336 0.7357246410948155 -0.33567033815750336 0.2642753589051845 0.3356703381575034
4398123.620205573 0.2700691301654804 0.33771249775029394 0.7299308698345196 -0.33771249775029394 0.7299308698345196 -0.33771249775029394 0.2700691301654804 0.33771249775029394
4487043.0392437745 0.27592154937135094 0.339684841251821 0.7240784506286491 -0.339684841251821 0.7240784506286491 -0.339684841251821 0.27592154937135094 0.339684841251821
4577760.193808502 0.28183097228406484 0.3415855472746984 0.7181690277159352 -0.3415855472746984 0.7181690277159352 -0.3415855472746984 0.28183097228406484 0.3415855472746984
4670311.429762763 0.28779569200093025 0.3434128134838022 0.7122043079990698 -0.3434128134838022 0.7122043079990698 -0.3434128134838022 0.28779569200093025 0.3434128134838022
4764733.827794987 0.2938139370433889 0.34516485779306316 0.706186062956611 -0.34516485779306316 0.706186062956611 -0.34516485779306316 0.2938139370433889 0.34516485779306316
4861065.218275411 0.29988386930592237 0.3468399198928496 0.7001161306940777 -0.3468399198928496 0.7001161306940777 -0.3468399198928496 0.29988386930592237 0.3468399198928496
4959344.196412832 0.30600358190587734 0.34843626313983894 0.6939964180941227 -0.34843626313983894 0.6939964180941227 -0.34843626313983894 0.30600358190587734 0.34843626313983894
5059610.137717796 0.31217109697919226 0.34995217683660007 0.6878289030208077 -0.3499521768366001 0.6878289030208077 -0.3499521768366001 0.31217109697919226 0.34995217683660007
5161903.213778406 0.3183843634713211 0.3513859789227441 0.681615636528679 -0.3513859789227441 0.681615636528679 -0.3513859789227441 0.3183843634713211 0.3513859789227441
5266264.4083550945 0.3246412549763244 0.3527360190935192 0.6753587450236755 -0.3527360190935192 0.6753587450236755 -0.3527360190935192 0.3246412549763244 0.3527360190935192
5372735.53380077 0.3309395676800157 0.35400068235521004 0.6690604323199845 -0.35400068235521004 0.6690604323199845 -0.35400068235521004 0.3309395676800157 0.35400068235521004
5481359.247812959 0.33727701846517366 0.35517839301973797 0.6627229815348262 -0.35517839301973797 0.6627229815348262 -0.35517839301973797 0.33727701846517366 0.35517839301973797
5592179.070524632 0.34365124323805984 0.35626761913356714 0.6563487567619402 -0.35626761913356714 0.6563487567619402 -0.35626761913356714 0.34365124323805984 0.35626761913356714
5705239.401940555 0.35005979553579136 0.357266877328496 0.6499402044642086 -0.357266877328496 0.6499402044642086 -0.357266877328496 0.35005979553579136 0.357266877328496
5820585.5397261735 0.3565001454734681 0.35817473807429756 0.643499854526532 -0.35817473807429756 0.643499854526532 -0.35817473807429756 0.3565001454734681 0.35817473807429756
5938263.697356135 0.3629696790883158 0.3589898313055698 0.6370303209116841 -0.3589898313055698 0.6370303209116841 -0.3589898313055698 0.3629696790883158 0.3589898313055698
6058321.022629741 0.36946569813549507 0.3597108523877138 0.630534301864505 -0.3597108523877137 0.630534301864505 -0.3597108523877137 0.36946569813549507 0.3597108523877138
6180805.616560728 0.3759854203866466 0.3603365683797967 0.6240145796133533 -0.36033656837979666 0.6240145796133533 -0.36033656837979666 0.3759854203866466 0.3603365683797967
6305766.552648956 0.382525980477731 0.3608658245453046 0.6174740195222689 -0.3608658245453046 0.6174740195222689 -0.3608658245453046 0.382525980477731 0.3608658245453046
6433253.896541728 0.3890844313473356 0.36129755105557126 0.6109155686526644 -0.36129755105557126 0.6109155686526644 -0.36129755105557126 0.3890844313473356 0.36129755105557126
6563318.726092606 0.3956577463004111 0.36163076982510695 0.6043422536995887 -0.36163076982510695 0.6043422536995887 -0.36163076982510695 0.3956577463004111 0.36163076982510695
6696013.151825785 0.40224282172548464 0.36186460141324095 0.5977571782745154 -0.3618646014132409 0.5977571782745154 -0.3618646014132409 0.40224282172548464 0.36186460141324095
6831390.3378141755 0.4088364804858214 0.361998271922539 0.5911635195141787 -0.36199827192253897 0.5911635195141787 -0.36199827192253897 0.4088364804858214 0.361998271922539
6969504.522979628 0.4154354759969498 0.36203111982144837 0.5845645240030503 -0.36203111982144837 0.5845645240030503 -0.36203111982144837 0.4154354759969498 0.36203111982144837
7110411.042823766 0.4220364969944878 0.36196260261660657 0.5779635030055122 -0.3619626026166066 0.5779635030055122 -0.3619626026166066 0.4220364969944878 0.36196260261660657
7254166.351598182 0.4286361729874827 0.36179230329930584 0.5713638270125173 -0.36179230329930584 0.5713638270125173 -0.36179230329930584 0.4286361729874827 0.36179230329930584
7400828.044922853 0.4352310803836333 0.3615199364907356 0.5647689196163668 -0.3615199364907356 0.5647689196163668 -0.3615199364907356 0.4352310803836333 0.3615199364907356
7550454.882861849 0.44181774926393275 0.3611453542118647 0.5581822507360672 -0.36114535421186467 0.5581822507360672 -0.36114535421186467 0.44181774926393275 0.3611453542118647
7703106.813465575 0.4483926707756141 0.3606685512061549 0.551607329224386 -0.3606685512061549 0.551607329224386 -0.3606685512061549 0.4483926707756141 0.3606685512061549
7858844.9967889795 0.4549523051039318 0.3600896697466965 0.5450476948960682 -0.3600896697466965 0.5450476948960682 -0.3600896697466965 0.4549523051039318 0.3600896697466965
8017731.829395356 0.4614930899754105 0.3594090038637721 0.5385069100245895 -0.3594090038637721 0.5385069100245895 -0.3594090038637721 0.4614930899754105 0.3594090038637721
8179830.96935555 0.4680114496378744 0.35862700293422917 0.5319885503621257 -0.35862700293422917 0.5319885503621257 -0.35862700293422917 0.4680114496378744 0.35862700293422917
8345207.361752584 0.4745038042559426 0.35774427458028635 0.5254961957440574 -0.35774427458028635 0.5254961957440574 -0.35774427458028635 0.4745038042559426 0.35774427458028635
8513927.264701942 0.48096657965487116 0.356761586832413 0.5190334203451289 -0.356761586832413 0.5190334203451289 -0.356761586832413 0.48096657965487116 0.356761586832413
8686058.275897898 0.4873962173407012 0.3556798695185982 0.512603782659299 -0.3556798695185982 0.512603782659299 -0.3556798695185982 0.4873962173407012 0.3556798695185982
8861669.359696563 0.49378918472074346 0.35450021485053235 0.5062108152792565 -0.35450021485053235 0.5062108152792565 -0.35450021485053235 0.49378918472074346 0.35450021485053235
9040830.87474648 0.5001419854455318 0.3532238771858353 0.49985801455446816 -0.3532238771858353 0.49985801455446816 -0.3532238771858353 0.5001419854455318 0.3532238771858353
9223614.602177842 0.5064511697915424 0.3518522719543303 0.4935488302084576 -0.3518522719543303 0.4935488302084576 -0.3518522719543303 0.5064511697915424 0.3518522719543303
