<Qucs Dataset 0.0.19>
<indep frequency 201>
  +1.00000000000000000000e+06
  +1.04526278963772184215e+06
  +1.09257429940123204142e+06
  +1.14202726007861131802e+06
  +1.19371859971209289506e+06
  +1.24774963357749721035e+06
  +1.30422626276265969500e+06
  +1.36325918173407809809e+06
  +1.42496409529859991744e+06
  +1.48946194538540695794e+06
  +1.55687914809277839959e+06
  +1.62734784146425733343e+06
  +1.70100614447985449806e+06
  +1.77799842776991822757e+06
  +1.85847559658226789907e+06
  +1.94259538655721023679e+06
  +2.03052267289015767165e+06
  +2.12242979348780959845e+06
  +2.21849688675128109753e+06
  +2.31891224464824469760e+06
  +2.42387268176609557122e+06
  +2.53358392106949444860e+06
  +2.64826099711837712675e+06
  +2.76812867753672972322e+06
  +2.89342190355821931735e+06
  +3.02438625051215104759e+06
  +3.16127840915230056271e+06
  +3.30436668877203250304e+06
  +3.45393154309181636199e+06
  +3.61026611994987213984e+06
  +3.77367683587335702032e+06
  +3.94448397665623575449e+06
  +4.12302232512099109590e+06
  +4.30964181729457341135e+06
  +4.50470822828470543027e+06
  +4.70860388920086994767e+06
  +4.92172843652512691915e+06
  +5.14449959540155716240e+06
  +5.37735399837956111878e+06
  +5.62074804121577832848e+06
  +5.87515877741196285933e+06
  +6.14108485324217565358e+06
  +6.41904748510187584907e+06
  +6.70959148109458759427e+06
  +7.01328630885842256248e+06
  +7.33072721172539424151e+06
  +7.66253637540124356747e+06
  +8.00936414745241962373e+06
  +8.37189031199047155678e+06
  +8.75082542205217480659e+06
  +9.14691219228694774210e+06
  +9.56092695468114316463e+06
  +9.99368118017250113189e+06
  +1.04460230691371075809e+07
  +1.09188392138662450016e+07
  +1.14130563362915795296e+07
  +1.19296431043646149337e+07
  +1.24696120306505654007e+07
  +1.30340214568579047918e+07
  +1.36239776281932201236e+07
  +1.42406368616071548313e+07
  +1.48852078121812622994e+07
  +1.55589538420977909118e+07
  +1.62631954968356918544e+07
  +1.69993130934461057186e+07
  +1.77687494259805232286e+07
  +1.85730125933740735054e+07
  +1.94136789553267173469e+07
  +2.02923962219759300351e+07
  +2.12108866834165267646e+07
  +2.21709505853975676000e+07
  +2.31744696578127369285e+07
  +2.42234108029000721872e+07
  +2.53198299503798633814e+07
  +2.64658760870867855847e+07
  +2.76637954689946025610e+07
  +2.89159360238886624575e+07
  +3.02247519533157646656e+07
  +3.15928085428310073912e+07
  +3.30227871899699829519e+07
  +3.45174906598008349538e+07
  +3.60798485783574357629e+07
  +3.77129231747204810381e+07
  +3.94199152830014005303e+07
  +4.12041706159927248955e+07
  +4.30691863227811828256e+07
  +4.50186178431770652533e+07
  +4.70562860723937675357e+07
  +4.91861848500209897757e+07
  +5.14124887879695892334e+07
  +5.37395614527311697602e+07
  +5.61719639179895520210e+07
  +5.87144637043472230434e+07
  +6.13720441236887574196e+07
  +6.41499140464962199330e+07
  +6.70535181112607270479e+07
  +7.00885473959999084473e+07
  +7.32609505727984905243e+07
  +7.65769455672346204519e+07
  +8.00430317455435842276e+07
  +8.36660026534076333046e+07
  +8.74529593313379138708e+07
  +9.14113242327484339476e+07
  +9.55488557720009386539e+07
  +9.98736635309340506792e+07
  +1.04394224153683260083e+08
  +1.09119397960944607854e+08
  +1.14058446316245719790e+08
  +1.19221049778263270855e+08
  +1.24617327074765175581e+08
  +1.30257854935365378857e+08
  +1.36153688821965724230e+08
  +1.42316384597514212132e+08
  +1.48758021175552487373e+08
  +1.55491224194945335388e+08
  +1.62529190766193002462e+08
  +1.69885715337832272053e+08
  +1.77575216733622491360e+08
  +1.85612766413509339094e+08
  +1.94014118013759493828e+08
  +2.02795738224164426327e+08
  +2.11974839062831342220e+08
  +2.21569411611822068691e+08
  +2.31598261279761791229e+08
  +2.42081044660529643297e+08
  +2.53038308060279190540e+08
  +2.64491527768296688795e+08
  +2.76463152150632619858e+08
  +2.88976645649008214474e+08
  +3.02056534771233797073e+08
  +3.15728456163283109665e+08
  +3.30019206857244551182e+08
  +3.44956796793631911278e+08
  +3.60570503721004188061e+08
  +3.76890930580495417118e+08
  +3.93950065487725317478e+08
  +4.11781344429663062096e+08
  +4.30419716799321234226e+08
  +4.49901713896736443043e+08
  +4.70265520530494987965e+08
  +4.91551049860140681267e+08
  +5.13800021626161217690e+08
  +5.37056043920883059502e+08
  +5.61364698660541176796e+08
  +5.86773630926056027412e+08
  +6.13332642347624421120e+08
  +6.41093788716153144836e+08
  +6.70111482012861967087e+08
  +7.00442597057032346725e+08
  +7.32146582980923771858e+08
  +7.65285579750366449356e+08
  +7.99924539959389328957e+08
  +8.36131356137621998787e+08
  +8.73976993819982409477e+08
  +9.13535630639464974403e+08
  +9.54884801715662002563e+08
  +9.98105551623975872993e+08
  +1.04328259324337434769e+09
  +1.09050447379404544830e+09
  +1.13986374839038014412e+09
  +1.19145716144943809509e+09
  +1.24538583631048130989e+09
  +1.30175547343720102310e+09
  +1.36067655759114122391e+09
  +1.42226457438236880302e+09
  +1.48664023662182211876e+09
  +1.55392972091900753975e+09
  +1.62426491498876881599e+09
  +1.69778367615183782578e+09
  +1.77463010153585529327e+09
  +1.85495481050644207001e+09
  +1.93891523988187575340e+09
  +2.02667595251002049446e+09
  +2.11840895981231141090e+09
  +2.21429405892695951462e+09
  +2.31451918511222839355e+09
  +2.41928078010043525696e+09
  +2.52878417712470245361e+09
  +2.64324400337309837341e+09
  +2.76288460065894460678e+09
  +2.88794046513186979294e+09
  +3.01865670689139604568e+09
  +3.15528953040391969681e+09
  +3.29810673666469955444e+09
  +3.44738824808910751343e+09
  +3.60342665716191959381e+09
  +3.76652779991999959946e+09
  +3.93701135539240360260e+09
  +4.11521147217285299301e+09
  +4.30147742335255336761e+09
  +4.49617429109716987610e+09
  +4.69968368220963573456e+09
  +4.91240447608132457733e+09
  +5.13475360649758815765e+09
  +5.36716687883002376556e+09
  +5.61009982421705627441e+09
  +5.86402859240721416473e+09
  +6.12945088501492881775e+09
  +6.40688693101809692383e+09
  +6.69688050640944004059e+09
  +7.00000000000001144409e+09
</indep>
<dep dBS22 frequency>
  -1.82152069269978911237e+00
  -1.94726430857166299404e+00
  -2.07947052263238685299e+00
  -2.21818167925408138430e+00
  -2.36340417448041018034e+00
  -2.51511311954810734548e+00
  -2.67324155771471838605e+00
  -2.83765276742326477688e+00
  -3.00818942243795950375e+00
  -3.18465247701040343742e+00
  -3.36679465040107039897e+00
  -3.55432204604724866215e+00
  -3.74691685629378223865e+00
  -3.94422495607425371844e+00
  -4.14586105208262711841e+00
  -4.35134732179927397056e+00
  -4.56027273622064477365e+00
  -4.77219248277192953367e+00
  -4.98663692406276215507e+00
  -5.20311275136876805192e+00
  -5.42100233630608485669e+00
  -5.63994176786355438935e+00
  -5.85945466617090282568e+00
  -6.07907405988512650197e+00
  -6.29825765363848688594e+00
  -6.51648915044133136831e+00
  -6.73348663366416033682e+00
  -6.94885196025559448429e+00
  -7.16220813906683329009e+00
  -7.37299933798109385918e+00
  -7.58096651445948932491e+00
  -7.78590079162629589149e+00
  -7.98750961166246042922e+00
  -8.18551788995796947290e+00
  -8.37933262647093712872e+00
  -8.56900093821928621196e+00
  -8.75431611027444844808e+00
  -8.93505621651804382566e+00
  -9.11092927839094457454e+00
  -9.28149205403182619989e+00
  -9.44685576393939996365e+00
  -9.60683391218773152787e+00
  -9.76124948098888367554e+00
  -9.90973788730683935455e+00
  -1.00521235904037666842e+01
  -1.01884849169757103482e+01
  -1.03187027199923804233e+01
  -1.04426774557887931394e+01
  -1.05600163220354232863e+01
  -1.06708814343691820170e+01
  -1.07753503354931350344e+01
  -1.08734233457833937564e+01
  -1.09651158909314112577e+01
  -1.10501155940211681639e+01
  -1.11288955590900613402e+01
  -1.12015618560219287758e+01
  -1.12682428243546173263e+01
  -1.13289831512038734473e+01
  -1.13838311949461825634e+01
  -1.14332144572917755454e+01
  -1.14773266741693511506e+01
  -1.15163701467576533588e+01
  -1.15503982721086586594e+01
  -1.15796859002928176352e+01
  -1.16045620351505220924e+01
  -1.16252355265140074891e+01
  -1.16419108319513959771e+01
  -1.16546218303130348914e+01
  -1.16637177586339397806e+01
  -1.16694081859108820254e+01
  -1.16718625436567933207e+01
  -1.16712207672406638181e+01
  -1.16675368634209810637e+01
  -1.16610732242096233335e+01
  -1.16519489835059193439e+01
  -1.16402701551535905367e+01
  -1.16260927276307057809e+01
  -1.16094886525021738777e+01
  -1.15905808237014795736e+01
  -1.15694206846752045692e+01
  -1.15460465621710888229e+01
  -1.15204443564273084633e+01
  -1.14926545123308105900e+01
  -1.14626953908775970348e+01
  -1.14305528579688182589e+01
  -1.13962003822202362358e+01
  -1.13595620768645684251e+01
  -1.13206266258628645005e+01
  -1.12793322546226235659e+01
  -1.12356039211330411831e+01
  -1.11893481750244756512e+01
  -1.11991803196912584895e+01
  -1.12721856314800987775e+01
  -1.13210960687490178600e+01
  -1.13468692280612017953e+01
  -1.13827761105401989994e+01
  -1.14218838195624208254e+01
  -1.14398350778250730286e+01
  -1.14686347580064982310e+01
  -1.15050530618213375789e+01
  -1.14893031439140855809e+01
  -1.14526245491393794396e+01
  -1.14724253789948669180e+01
  -1.15709478197796187260e+01
  -1.15885727257307458160e+01
  -1.15520589579525267965e+01
  -1.15938170163908864652e+01
  -1.16170583985208253353e+01
  -1.16490285730623543969e+01
  -1.17000222139929235254e+01
  -1.16681616339607803212e+01
  -1.16938073245924698540e+01
  -1.17142727314914978365e+01
  -1.17562503356574765689e+01
  -1.17645498353473509923e+01
  -1.17743949060665613615e+01
  -1.18222451537226884710e+01
  -1.18174928405784012142e+01
  -1.18281118108270799638e+01
  -1.19117916002109538454e+01
  -1.19357516306157744879e+01
  -1.19183543037552261978e+01
  -1.19546686400809765161e+01
  -1.19902560709485950241e+01
  -1.20078675061981385852e+01
  -1.20335540984584365987e+01
  -1.20232919244448908103e+01
  -1.20671560883194999292e+01
  -1.20923058845776871806e+01
  -1.21063221102563964848e+01
  -1.21141954538677314446e+01
  -1.21497474807710723610e+01
  -1.21504417865278888655e+01
  -1.21638700738271801072e+01
  -1.21670130157712144126e+01
  -1.22249359181376675565e+01
  -1.22356285457429194707e+01
  -1.22548806878293490286e+01
  -1.22763007452133194874e+01
  -1.22957259763073789571e+01
  -1.23393823975902492407e+01
  -1.23533829522162115211e+01
  -1.23934068900726259699e+01
  -1.24183006826704716019e+01
  -1.24609984785760161685e+01
  -1.25006484935109156709e+01
  -1.25560402217343352049e+01
  -1.26215868026744448827e+01
  -1.26775956432740386504e+01
  -1.27255599959095082596e+01
  -1.27737383583826691336e+01
  -1.28102813101812635921e+01
  -1.28610031253862935330e+01
  -1.29411411149332860049e+01
  -1.30222737174407434679e+01
  -1.30989659599182406424e+01
  -1.31153936207036796446e+01
  -1.31701366463266449358e+01
  -1.32599481937890750771e+01
  -1.33685461429722707294e+01
  -1.34391214789024520115e+01
  -1.34832505211365916153e+01
  -1.35621021986274552518e+01
  -1.36970640701081318724e+01
  -1.38007421953870146325e+01
  -1.38639568031421518413e+01
  -1.39773135138581068304e+01
  -1.41057906749645134425e+01
  -1.41711889492158924497e+01
  -1.42570622866212879387e+01
  -1.44023952655025038183e+01
  -1.44418996349817909675e+01
  -1.45351529489193520561e+01
  -1.46354808972534655709e+01
  -1.46643894324402541685e+01
  -1.47962659147036390550e+01
  -1.48593243663362493123e+01
  -1.50223921103925999176e+01
  -1.50060240390472721117e+01
  -1.51727334657032812970e+01
  -1.52321518680128349388e+01
  -1.53925195058228077016e+01
  -1.55199808782227517412e+01
  -1.56073349390255078362e+01
  -1.53159755072407257614e+01
  -1.45995480828394104122e+01
  -1.43895047483325395632e+01
  -1.45115768626757422055e+01
  -1.46179707267060354781e+01
  -1.47740803570116785437e+01
  -1.50503329905933682653e+01
  -1.53017455673909363867e+01
  -1.53771628923744287931e+01
  -1.53476933368965813287e+01
  -1.52528979167801281847e+01
  -1.49894628169136350238e+01
  -1.45328815434039686494e+01
  -1.37168643412586810371e+01
  -1.27953482805669018774e+01
  -1.17671486575941841579e+01
  -1.05223234231030318142e+01
</dep>
<dep dBS11 frequency>
  -5.01298846117468066552e+00
  -5.16280204076321425077e+00
  -5.32159737685762657122e+00
  -5.48941745265603930903e+00
  -5.66626512846866781103e+00
  -5.85215814333983885831e+00
  -6.04711107256361035667e+00
  -6.25083190139698174903e+00
  -6.46312497253642792572e+00
  -6.68373752723354552785e+00
  -6.91248895684833630781e+00
  -7.14898693345474978145e+00
  -7.39268838150629381545e+00
  -7.64309190904030621994e+00
  -7.89963146518684311559e+00
  -8.16188158516425055211e+00
  -8.42898693132438658893e+00
  -8.70014400474055982215e+00
  -8.97452927648141063344e+00
  -9.25128305362829550518e+00
  -9.52966147677855346387e+00
  -9.80844538306459945431e+00
  -1.00865871269853961678e+01
  -1.03629949518486697002e+01
  -1.06366361856964353194e+01
  -1.09064264748298018759e+01
  -1.11710448513683822114e+01
  -1.14293246999740070180e+01
  -1.16801148051927548011e+01
  -1.19224819785667506267e+01
  -1.21552962993166442374e+01
  -1.23774765613871693404e+01
  -1.25881307461906484235e+01
  -1.27864817571186577538e+01
  -1.29722054574930858450e+01
  -1.31445467667029785019e+01
  -1.33031500966932476615e+01
  -1.34478514933487502958e+01
  -1.35787386113375845298e+01
  -1.36962433767928342121e+01
  -1.38003889275370781320e+01
  -1.38916495663026360319e+01
  -1.39706276209268374089e+01
  -1.40382536468859839829e+01
  -1.40953596824493629924e+01
  -1.41425690591269663798e+01
  -1.41807822593925347832e+01
  -1.42109228159696403537e+01
  -1.42342763789148296638e+01
  -1.42515199002763601754e+01
  -1.42634248986666207770e+01
  -1.42708450211946207276e+01
  -1.42746047036556547027e+01
  -1.42758821534655648833e+01
  -1.42749470487128160556e+01
  -1.42724563900739358502e+01
  -1.42690151698559208882e+01
  -1.42652944248992987752e+01
  -1.42619343847290949157e+01
  -1.42591170825585180637e+01
  -1.42572571873490883121e+01
  -1.42567302514748490694e+01
  -1.42580522025228102478e+01
  -1.42614611137379725392e+01
  -1.42671028138844331323e+01
  -1.42752316653596196261e+01
  -1.42860805213784161083e+01
  -1.43000529992665015300e+01
  -1.43171665517156121439e+01
  -1.43375738385340909531e+01
  -1.43614515403366631574e+01
  -1.43889894805477140949e+01
  -1.44204557848232628459e+01
  -1.44558632756067684255e+01
  -1.44953726948534296071e+01
  -1.45391460085279273784e+01
  -1.45873872685519643255e+01
  -1.46402715398398051150e+01
  -1.46979151103705767412e+01
  -1.47605067294826319824e+01
  -1.48282470348139039373e+01
  -1.49013827130425049461e+01
  -1.49801163473226672807e+01
  -1.50646827326477499298e+01
  -1.51553559857890398632e+01
  -1.52524349710339013342e+01
  -1.53562594488640620227e+01
  -1.54671651109645367228e+01
  -1.55855423597050108953e+01
  -1.57118176236417976810e+01
  -1.58464543799146806435e+01
  -1.58465075304927793809e+01
  -1.56872970586676210303e+01
  -1.55883840930844979056e+01
  -1.55516871918786865336e+01
  -1.56686781820279303901e+01
  -1.58292736869196719596e+01
  -1.57399567411561775998e+01
  -1.56641741566463466029e+01
  -1.56071540562724244694e+01
  -1.57238009130374614131e+01
  -1.56253587576577679386e+01
  -1.55504971048066398254e+01
  -1.56334610417552504202e+01
  -1.56471624057064762070e+01
  -1.55019535094587119772e+01
  -1.55410377878902927762e+01
  -1.54535700421046158226e+01
  -1.55025111633919987497e+01
  -1.54178459909907310532e+01
  -1.54755668872404772429e+01
  -1.54430713350322150745e+01
  -1.54413200570576218951e+01
  -1.53702434360219957199e+01
  -1.53909488149067978924e+01
  -1.53189277915645050143e+01
  -1.52868893863298787039e+01
  -1.53093944047692716026e+01
  -1.53029498415475995188e+01
  -1.53600255927357629560e+01
  -1.52902164631669652550e+01
  -1.52851307499097810449e+01
  -1.52856645748180586253e+01
  -1.52807798896117468246e+01
  -1.53153900693137927647e+01
  -1.53549050650778760030e+01
  -1.53587585009328702057e+01
  -1.53969388517935890093e+01
  -1.53992048890057908750e+01
  -1.54739920347716246596e+01
  -1.54937136835109328103e+01
  -1.55244110092901070885e+01
  -1.55275741244921263728e+01
  -1.55626929010058816516e+01
  -1.55496278488158239384e+01
  -1.55736497185626969753e+01
  -1.55775873415910570685e+01
  -1.56125284609497843036e+01
  -1.56478233575566267888e+01
  -1.56629719408243079926e+01
  -1.56967301709040718549e+01
  -1.57609778467825414339e+01
  -1.58343861780835837294e+01
  -1.59188606413253896932e+01
  -1.59580072567349198209e+01
  -1.60586733547822220203e+01
  -1.61396402802631335760e+01
  -1.62114566740676444567e+01
  -1.63456337552644157540e+01
  -1.64234827607951672235e+01
  -1.65318874587862971737e+01
  -1.65979633055565933830e+01
  -1.66254595112958689640e+01
  -1.66892138904171147828e+01
  -1.67251382629344895747e+01
  -1.67946501473672569205e+01
  -1.68429776079198845196e+01
  -1.69228474324729205591e+01
  -1.69402414420954876562e+01
  -1.69532439309711193687e+01
  -1.70070799168737316620e+01
  -1.70471067994711766858e+01
  -1.71069530396490989688e+01
  -1.70950324275495262327e+01
  -1.71458991972823007188e+01
  -1.71233128904312579266e+01
  -1.71228120737889781822e+01
  -1.71698415180331025454e+01
  -1.71077133693305860618e+01
  -1.70695774905597446036e+01
  -1.69837936474253545782e+01
  -1.69233050112447713786e+01
  -1.68893922944058623159e+01
  -1.69035512291175926691e+01
  -1.66228975693907159439e+01
  -1.66012858567224910189e+01
  -1.65407486098873306446e+01
  -1.60184866711486719737e+01
  -1.63388149197245624578e+01
  -1.59273618517670954020e+01
  -1.57378480562025142575e+01
  -1.52732574721971747778e+01
  -1.53751053816148690601e+01
  -1.48980485422318622568e+01
  -1.49114481097311113444e+01
  -1.39663143399063081063e+01
  -1.40008932780525157114e+01
  -1.39633151388370908563e+01
  -1.38904340411595317306e+01
  -1.38148313628335337455e+01
  -1.39198900722644260952e+01
  -1.39801060547329356609e+01
  -1.40043068993189834259e+01
  -1.41034742261330929836e+01
  -1.41897290389911567843e+01
  -1.42967096501564938649e+01
  -1.41713417743250786884e+01
  -1.37211052245936429017e+01
  -1.33687197393498120590e+01
  -1.24377833799363468614e+01
  -1.14900956925829689226e+01
</dep>
<dep Mu2 frequency>
  +1.37762371939536865106e+00
  +1.37447262829449368127e+00
  +1.37122235183795315727e+00
  +1.36786458792782794625e+00
  +1.36439589666057270456e+00
  +1.36081940007005264270e+00
  +1.35714620095522353616e+00
  +1.35338622525400720242e+00
  +1.34955617036686170707e+00
  +1.34567586971204367075e+00
  +1.34177461358424299220e+00
  +1.33787642382534710528e+00
  +1.33399783435464458492e+00
  +1.33015900489948957208e+00
  +1.32637772734991465917e+00
  +1.32268779617974563401e+00
  +1.31908896904600991817e+00
  +1.31558614655731243026e+00
  +1.31218511986922603541e+00
  +1.30889199080538687348e+00
  +1.30573084181323539887e+00
  +1.30267672398812695000e+00
  +1.29972734177007431811e+00
  +1.29687943643457570531e+00
  +1.29414054636258391007e+00
  +1.29151427519321315707e+00
  +1.28897745581137201931e+00
  +1.28652584432530048275e+00
  +1.28415562213907863409e+00
  +1.28188363976407249112e+00
  +1.27969812828616191780e+00
  +1.27758678607758846546e+00
  +1.27554900051965480756e+00
  +1.27358523001470880232e+00
  +1.27172539125759098688e+00
  +1.26994614387692217328e+00
  +1.26824914897981555484e+00
  +1.26663937889668609671e+00
  +1.26512899277792367769e+00
  +1.26374302424589624039e+00
  +1.26246513367898893776e+00
  +1.26130383478172425349e+00
  +1.26026822399766635918e+00
  +1.25938212050732056824e+00
  +1.25865655469866455363e+00
  +1.25808584732060801947e+00
  +1.25767997152005994721e+00
  +1.25744884529941880480e+00
  +1.25742354179386461865e+00
  +1.25759868259132789881e+00
  +1.25797640806096677757e+00
  +1.25856563945082178257e+00
  +1.25937578349885681561e+00
  +1.26043881798809431771e+00
  +1.26173743418727157817e+00
  +1.26327962674440352764e+00
  +1.26507333912517516694e+00
  +1.26713302614313061412e+00
  +1.26947411305015012140e+00
