! Network Analyzer HP8720D.06.14 Serial No. US36140363
! Hewlett-Packard
! 27 May 2014  20:34:46
! Frequency       S11                S21                S12                S22
# HZ  S  DB R 50
50000000  -14.01    177.97    12.678    178.78   -16.38    .1236   -12.485    179.12   
54968750  -14.395    178.99    12.683    178.49   -16.578   -1.1769   -12.34    178.1   
59937500  -14.014    176.95    12.669    178.48   -16.414    .7470   -12.496    177.5   
64906250  -14.078    177.96    12.691    178.2   -16.566   -.5479   -12.501    177.93   
69875000  -14.288    176.2    12.733    177.92   -16.421   -.5561   -12.562    177.32   
74843750  -14.238    177    12.687    178.13   -16.403   -1.3211   -12.541    178.13   
79812500  -14.136    175.44    12.688    177.88   -16.476   -.3790   -12.609    176.87   
84781250  -14.326    176.52    12.715    177.64   -16.418   -.5905   -12.541    177.29   
89750000  -14.15    175.85    12.683    177.56   -16.507   -1.0698   -12.436    177.45   
94718750  -14.26    175.66    12.687    177.58   -16.415   -1.1261   -12.594    176.87   
99687500  -14.303    175.79    12.684    177.34   -16.467   -.3845   -12.594    176.99   
104656250  -14.171    175.42    12.673    177.19   -16.424   -.0686   -12.528    176.65   
109625000  -14.236    175.01    12.67    177.27   -16.455   -.2650   -12.564    176.66   
114593750  -14.189    175.39    12.676    177.1   -16.457   -.9571   -12.573    176.32   
119562500  -14.27    175.33    12.671    176.89   -16.507   -.7978   -12.594    176.16   
124531250  -14.198    174.54    12.677    176.67   -16.497   -.9819   -12.636    176.04   
129500000  -14.274    174.76    12.692    176.62   -16.456   -1.2346   -12.578    175.77   
134468750  -14.257    174.56    12.696    176.55   -16.532   -1.2195   -12.596    175.92   
139437500  -14.261    173.53    12.673    176.43   -16.514   -1.0011   -12.584    175.48   
144406250  -14.259    173.49    12.67    176.28   -16.457   -1.0931   -12.611    175.71   
149375000  -14.216    173.86    12.669    176.08   -16.477   -.9681   -12.636    175.43   
154343750  -14.26    173.25    12.678    175.99   -16.472   -1.1508   -12.629    175.53   
159312500  -14.222    173.18    12.659    175.93   -16.506   -1.2868   -12.611    175.18   
164281250  -14.206    173.08    12.667    175.72   -16.5   -1.5573   -12.627    175.34   
169250000  -14.186    172.84    12.662    175.7   -16.477   -1.3788   -12.674    174.84   
174218750  -14.23    172.91    12.655    175.53   -16.462   -1.3788   -12.621    174.58   
179187500  -14.221    172.55    12.663    175.46   -16.448   -1.4598   -12.661    174.61   
184156250  -14.245    172.47    12.619    175.2   -16.455   -1.3142   -12.629    174.59   
189125000  -14.218    172.32    12.602    175.25   -16.477   -1.4763   -12.683    174.61   
194093750  -14.311    171.95    12.595    175.02   -16.533   -1.5807   -12.734    174.08   
199062500  -14.251    171.79    12.604    174.77   -16.527   -1.6878   -12.743    174.12   
204031250  -14.261    171.85    12.6    174.75   -16.497   -1.6411   -12.751    173.76   
209000000  -14.271    171.71    12.577    174.56   -16.531   -1.7152   -12.705    173.98   
213968750  -14.266    171.26    12.599    174.53   -16.53   -1.7647   -12.721    173.78   
218937500  -14.3    171.23    12.562    174.29   -16.527   -1.5916   -12.744    173.76   
223906250  -14.262    171.06    12.564    174.26   -16.529   -1.5916   -12.747    173.52   
228875000  -14.276    171.08    12.592    174.2   -16.53   -2.0023   -12.761    172.98   
233843750  -14.295    170.97    12.583    174.15   -16.538   -1.6631   -12.798    172.78   
238812500  -14.319    170.45    12.571    173.89   -16.56   -1.7908   -12.811    172.97   
243781250  -14.331    170.22    12.571    173.89   -16.561   -1.8622   -12.779    172.65   
248750000  -14.336    170.13    12.578    173.6   -16.533   -2.1616   -12.806    172.62   
253718750  -14.378    169.97    12.576    173.5   -16.544   -2.038   -12.813    172.16   
258687500  -14.374    169.7    12.567    173.48   -16.545   -2.1671   -12.819    172.04   
263656250  -14.381    169.74    12.578    173.53   -16.54   -2.1094   -12.79    171.98   
268625000  -14.382    169.1    12.56    173.36   -16.522   -2.0943   -12.794    171.86   
273593750  -14.408    169.6    12.547    173.2   -16.55   -2.189   -12.83    171.67   
278562500  -14.443    169.21    12.569    173.27   -16.541   -2.3511   -12.834    171.6   
283531250  -14.446    168.84    12.568    172.85   -16.542   -2.1313   -12.825    171.37   
288500000  -14.434    169.16    12.567    172.81   -16.528   -2.1327   -12.855    171.09   
293468750  -14.457    168.46    12.544    172.72   -16.523   -2.0915   -12.846    171.11   
298437500  -14.528    168.31    12.553    172.52   -16.514   -2.2412   -12.868    170.86   
303406250  -14.507    168.38    12.555    172.33   -16.551   -2.3978   -12.858    170.92   
308375000  -14.486    167.96    12.571    172.49   -16.547   -2.1973   -12.82    170.61   
313343750  -14.535    167.55    12.568    172.21   -16.54   -2.5269   -12.876    170.17   
318312500  -14.53    167.71    12.562    172.13   -16.543   -2.2179   -12.851    170.2   
323281250  -14.551    167.18    12.562    171.99   -16.542   -2.3456   -12.88    170.02   
328250000  -14.574    167.04    12.566    171.91   -16.572   -2.4623   -12.894    169.78   
333218750  -14.559    166.85    12.558    171.68   -16.566   -2.3991   -12.903    169.63   
338187500  -14.572    166.66    12.571    171.52   -16.539   -2.509   -12.887    169.47   
343156250  -14.562    166.36    12.55    171.65   -16.539   -2.5859   -12.886    169.39   
348125000  -14.597    166.09    12.564    171.36   -16.561   -2.4541   -12.897    169.33   
353093750  -14.607    166    12.549    171.24   -16.578   -2.6559   -12.898    169.06   
358062500  -14.604    165.93    12.55    171.08   -16.575   -2.7205   -12.901    168.99   
363031250  -14.633    165.59    12.545    170.97   -16.571   -2.8194   -12.896    168.56   
368000000  -14.621    165.3    12.553    170.89   -16.581   -2.6395   -12.918    168.86   
372968750  -14.62    165.15    12.544    170.81   -16.566   -2.9114   -12.916    168.59   
377937500  -14.607    164.87    12.546    170.66   -16.566   -2.7438   -12.888    168.47   
382906250  -14.635    164.72    12.557    170.45   -16.577   -2.8798   -12.948    168.16   
387875000  -14.646    164.61    12.545    170.47   -16.556   -3.0501   -12.957    168.25   
392843750  -14.627    164.28    12.53    170.26   -16.574   -3.0116   -12.955    168.01   
397812500  -14.692    164.34    12.529    170.17   -16.591   -3.0803   -12.945    167.84   
402781250  -14.581    163.5    12.523    170.16   -16.605   -3.0226   -12.969    168.01   
407750000  -14.657    163.72    12.509    169.97   -16.59   -3.2217   -12.967    167.74   
412718750  -14.655    163.61    12.5    169.89   -16.606   -3.0762   -12.955    167.52   
417687500  -14.665    163.46    12.507    169.83   -16.596   -3.1888   -12.946    167.48   
422656250  -14.668    163.34    12.517    169.87   -16.599   -3.2671   -12.998    167.33   
427625000  -14.68    163.09    12.51    169.61   -16.576   -3.2162   -12.985    167.25   
432593750  -14.697    163.06    12.506    169.65   -16.584   -3.1902   -12.961    167.06   
437562500  -14.68    162.74    12.521    169.46   -16.594   -3.3151   -12.991    167.04   
442531250  -14.703    162.78    12.501    169.37   -16.615   -3.3055   -12.994    166.73   
447500000  -14.727    162.61    12.508    169.29   -16.608   -3.2726   -12.993    166.76   
452468750  -14.733    162.64    12.523    169.09   -16.598   -3.2629   -12.983    166.65   
457437500  -14.722    162.44    12.545    168.85   -16.594   -3.4744   -12.998    166.55   
462406250  -14.711    162.18    12.529    168.86   -16.584   -3.3495   -13.023    166.53   
467375000  -14.747    162.03    12.534    168.6   -16.587   -3.3948   -13.006    166.25   
472343750  -14.751    161.84    12.526    168.51   -16.612   -3.4964   -13    166.2   
477312500  -14.749    161.85    12.535    168.3   -16.614   -3.5568   -13.037    166.01   
482281250  -14.782    161.51    12.517    168.26   -16.606   -3.6337   -13.016    165.88   
487250000  -14.764    161.55    12.488    168.1   -16.621   -3.6942   -13.039    165.74   
492218750  -14.799    161.45    12.488    167.78   -16.609   -3.712   -13.045    165.72   
497187500  -14.825    161.32    12.483    167.76   -16.63   -3.6969   -13.053    165.6   
502156250  -14.821    161.12    12.459    167.6   -16.617   -3.679   -13.059    165.31   
507125000  -14.861    161.05    12.451    167.72   -16.621   -3.7587   -13.052    165.2   
512093750  -14.848    160.86    12.464    167.69   -16.618   -3.6324   -13.051    165.07   
517062500  -14.881    160.83    12.46    167.7   -16.617   -3.8013   -13.055    164.98   
522031250  -14.892    160.76    12.46    167.48   -16.631   -3.8795   -13.084    164.84   
527000000  -14.925    160.29    12.475    167.47   -16.618   -3.8177   -13.077    164.81   
531968750  -14.935    160.4    12.486    167.21   -16.626   -3.8081   -13.065    164.63   
536937500  -14.932    160.33    12.489    167.21   -16.639   -3.9207   -13.09    164.35   
541906250  -14.965    159.98    12.491    167.17   -16.633   -4.0347   -13.074    164.3   
546875000  -14.983    159.86    12.494    166.8   -16.624   -3.9523   -13.095    164.14   
551843750  -14.989    159.67    12.499    166.85   -16.672   -4.0883   -13.104    164.19   
556812500  -15.018    159.59    12.493    166.59   -16.65   -4.1171   -13.122    163.84   
561781250  -15.019    159.44    12.478    166.37   -16.654   -4.1185   -13.108    163.73   
566750000  -15.027    159.24    12.495    166.26   -16.66   -4.1762   -13.112    163.77   
571718750  -15.022    158.99    12.482    166.2   -16.655   -4.2242   -13.141    163.62   
576687500  -15.033    158.95    12.478    165.95   -16.671   -4.1982   -13.122    163.41   
581656250  -15.056    158.76    12.466    165.83   -16.657   -4.2696   -13.118    163.4   
586625000  -15.063    158.48    12.469    165.79   -16.677   -4.2888   -13.148    163.03   
591593750  -15.081    158.35    12.438    165.7   -16.672   -4.2599   -13.167    163.12   
596562500  -15.098    158.36    12.438    165.41   -16.66   -4.3039   -13.137    162.89   
601531250  -15.13    158.58    12.422    165.58   -16.687   -4.422   -13.164    162.61   
606500000  -15.126    157.97    12.406    165.44   -16.691   -4.4124   -13.169    162.85   
611468750  -15.17    157.89    12.412    165.28   -16.679   -4.4275   -13.184    162.78   
616437500  -15.163    157.59    12.412    165.32   -16.697   -4.3286   -13.184    162.63   
621406250  -15.177    157.59    12.414    165.23   -16.68   -4.2682   -13.192    162.42   
626375000  -15.2    157.5    12.422    165.05   -16.704   -4.3712   -13.208    162.39   
631343750  -15.214    157.3    12.434    165.07   -16.698   -4.4426   -13.202    162.34   
636312500  -15.222    157.24    12.41    164.96   -16.678   -4.5291   -13.235    162.29   
641281250  -15.248    157.08    12.421    164.83   -16.692   -4.4701   -13.237    162.21   
646250000  -15.244    156.99    12.424    164.75   -16.682   -4.4371   -13.241    162.17   
651218750  -15.271    156.92    12.431    164.6   -16.669   -4.5277   -13.246    162.02   
656187500  -15.283    156.8    12.413    164.35   -16.683   -4.6239   -13.255    161.91   
661156250  -15.317    156.73    12.422    164.36   -16.678   -4.6788   -13.283    161.93   
666125000  -15.305    156.54    12.411    164.17   -16.676   -4.6349   -13.284    161.75   
671093750  -15.326    156.67    12.413    164.16   -16.685   -4.8203   -13.305    161.74   
676062500  -15.363    156.26    12.4    163.99   -16.684   -4.7379   -13.303    161.57   
681031250  -15.363    156.28    12.396    163.94   -16.686   -4.9658   -13.287    161.41   
686000000  -15.371    156.29    12.401    163.71   -16.683   -4.9562   -13.312    161.53   
690968750  -15.416    156.17    12.397    163.75   -16.688   -4.9974   -13.329    161.26   
695937500  -15.428    155.99    12.386    163.68   -16.695   -5.0551   -13.328    161.25   
700906250  -15.461    156.11    12.381    163.64   -16.717   -5.0331   -13.356    161.1   
705875000  -15.458    155.76    12.403    163.28   -16.709   -5.0194   -13.35    161.16   
710843750  -15.456    155.82    12.401    163.31   -16.719   -5.0359   -13.361    161   
715812500  -15.479    155.66    12.406    163.05   -16.74   -5.088   -13.368    160.85   
720781250  -15.521    155.7    12.418    163.03   -16.726   -5.2034   -13.395    160.79   
725750000  -15.521    155.53    12.411    162.82   -16.731   -4.9686   -13.408    160.66   
730718750  -15.53    155.42    12.403    162.74   -16.709   -5.11   -13.392    160.36   
735687500  -15.554    155.51    12.396    162.45   -16.751   -5.2309   -13.406    160.36   
740656250  -15.563    155.09    12.38    162.28   -16.721   -5.0894   -13.411    160.22   
745625000  -15.554    155.26    12.375    162.3   -16.725   -5.294   -13.41    160.17   
750593750  -15.606    155.03    12.371    162.16   -16.732   -5.3064   -13.429    160.02   
755562500  -15.619    154.96    12.349    162.04   -16.725   -5.2872   -13.429    159.85   
760531250  -15.618    154.93    12.347    161.93   -16.724   -5.3133   -13.421    159.75   
765500000  -15.653    154.74    12.334    161.99   -16.738   -5.2528   -13.439    159.62   
770468750  -15.674    154.66    12.317    161.96   -16.744   -5.2927   -13.435    159.44   
775437500  -15.687    154.64    12.314    161.87   -16.732   -5.463   -13.446    159.53   
780406250  -15.688    154.53    12.324    161.81   -16.743   -5.5632   -13.459    159.37   
785375000  -15.69    154.47    12.321    161.86   -16.761   -5.4506   -13.454    159.17   
790343750  -15.737    154.42    12.327    161.82   -16.748   -5.5096   -13.444    159.35   
795312500  -15.719    154.09    12.344    161.76   -16.755   -5.4053   -13.449    158.96   
800281250  -15.719    154.23    12.364    161.61   -16.75   -5.5618   -13.468    158.92   
805250000  -15.755    153.99    12.369    161.6   -16.767   -5.7005   -13.475    158.95   
810218750  -15.733    153.98    12.362    161.39   -16.751   -5.7074   -13.48    158.74   
815187500  -15.739    153.75    12.398    161.15   -16.767   -5.7335   -13.48    158.8   
820156250  -15.756    153.72    12.378    160.99   -16.779   -5.8406   -13.48    158.48   
825125000  -15.758    153.61    12.374    160.84   -16.797   -5.8694   -13.503    158.53   
830093750  -15.76    153.42    12.376    160.65   -16.792   -5.7225   -13.492    158.47   
835062500  -15.754    153.5    12.379    160.51   -16.795   -5.7513   -13.503    158.35   
840031250  -15.774    153.34    12.363    160.34   -16.807   -5.8145   -13.538    158.33   
845000000  -15.79    153.28    12.345    160.35   -16.796   -5.8928   -13.538    158.18   
849968750  -15.795    153.13    12.32    160.14   -16.803   -5.7912   -13.534    158.11   
854937500  -15.798    153.12    12.318    160   -16.803   -5.7843   -13.56    158.02   
859906250  -15.804    152.99    12.312    160.12   -16.779   -5.7664   -13.56    157.94   
864875000  -15.83    152.92    12.301    159.93   -16.791   -5.7678   -13.566    157.95   
869843750  -15.828    153    12.313    159.74   -16.772   -5.7857   -13.576    157.91   
874812500  -15.827    152.93    12.325    159.81   -16.754   -5.8488   -13.589    157.76   
879781250  -15.84    152.9    12.31    159.8   -16.781   -6.0013   -13.612    157.81   
884750000  -15.83    152.89    12.316    159.63   -16.774   -6.0342   -13.61    157.72   
889718750  -15.852    152.85    12.31    159.44   -16.773   -6.1647   -13.623    157.65   
894687500  -15.854    152.83    12.309    159.54   -16.792   -6.2183   -13.635    157.55   
899656250  -15.874    152.8    12.308    159.32   -16.795   -6.1839   -13.639    157.55   
904625000  -15.862    152.61    12.314    159.25   -16.794   -6.2952   -13.663    157.56   
909593750  -15.873    152.76    12.306    159.25   -16.794   -6.3927   -13.671    157.42   
914562500  -15.882    152.68    12.295    159.12   -16.816   -6.4394   -13.662    157.37   
919531250  -15.892    152.71    12.295    159.07   -16.815   -6.4325   -13.683    157.24   
924500000  -15.908    152.54    12.305    159.02   -16.814   -6.4078   -13.68    157.11   
929468750  -15.92    152.53    12.298    158.89   -16.826   -6.2828   -13.686    157.06   
934437500  -15.916    152.66    12.299    158.8   -16.852   -6.4009   -13.711    157.01   
939406250  -15.946    152.79    12.305    158.67   -16.83   -6.3858   -13.698    156.86   
944375000  -15.949    152.64    12.308    158.58   -16.839   -6.3776   -13.707    156.89   
949343750  -15.954    152.64    12.316    158.4   -16.832   -6.5575   -13.724    156.57   
954312500  -15.95    152.52    12.311    158.33   -16.825   -6.5492   -13.733    156.57   
959281250  -15.998    152.42    12.321    158.07   -16.833   -6.5465   -13.739    156.53   
964250000  -15.992    152.44    12.317    157.96   -16.84   -6.6097   -13.728    156.53   
969218750  -15.982    152.36    12.307    157.74   -16.837   -6.7964   -13.741    156.15   
974187500  -16.015    152.17    12.301    157.61   -16.843   -6.6948   -13.748    155.99   
979156250  -16.016    152.27    12.304    157.49   -16.857   -6.828   -13.756    156.06   
984125000  -15.999    152.1    12.289    157.43   -16.859   -6.8417   -13.743    155.94   
989093750  -16.027    152.04    12.285    157.34   -16.836   -6.8733   -13.779    155.8   
994062500  -16.024    151.95    12.278    157.18   -16.874   -6.9681   -13.745    155.56   
999031250  -16.019    151.9    12.265    157.05   -16.857   -6.9887   -13.732    155.66   
1004000000  -16.004    151.97    12.249    157.08   -16.886   -6.8335   -13.713    155.55   
1008968750  -15.955    152.09    12.233    157.09   -16.901   -6.9804   -13.745    155.3   
1013937500  -16.046    151.73    12.224    156.91   -16.909   -6.9159   -13.734    155.2   
1018906250  -16.087    151.77    12.242    156.92   -16.898   -6.9214   -13.758    155.11   
1023875000  -16.113    151.8    12.231    156.89   -16.899   -6.7813   -13.79    155.19   
1028843750  -16.098    151.53    12.245    156.81   -16.902   -6.8239   -13.762    154.95   
1033812500  -16.107    151.57    12.236    156.73   -16.91   -6.9077   -13.786    154.88   
1038781250  -16.098    151.38    12.257    156.67   -16.901   -6.8912   -13.784    154.88   
1043750000  -16.104    151.37    12.269    156.69   -16.884   -6.8005   -13.776    154.64   
1048718750  -16.118    151.45    12.283    156.42   -16.891   -6.8184   -13.775    154.65   
1053687500  -16.111    151.29    12.305    156.38   -16.896   -7.0258   -13.794    154.66   
1058656250  -16.118    151.24    12.287    156.1   -16.883   -7.056   -13.798    154.55   
1063625000  -16.11    151.13    12.299    155.95   -16.88   -7.1851   -13.818    154.33   
1068593750  -16.113    151.13    12.305    155.94   -16.894   -7.1686   -13.801    154.35   
1073562500  -16.128    150.96    12.292    155.67   -16.897   -7.2908   -13.838    154.26   
1078531250  -16.132    150.91    12.279    155.65   -16.92   -7.3828   -13.833    154.28   
1083500000  -16.129    150.86    12.282    155.51   -16.922   -7.4103   -13.832    154.06   
1088468750  -16.137    150.91    12.262    155.37   -16.942   -7.5009   -13.859    154.11   
1093437500  -16.143    150.77    12.276    155.25   -16.95   -7.4707   -13.858    153.96   
1098406250  -16.13    150.77    12.272    155.1   -16.965   -7.4171   -13.87    153.99   
1103375000  -16.165    150.62    12.251    154.97   -16.962   -7.4638   -13.88    153.89   
1108343750  -16.145    150.63    12.267    154.97   -16.967   -7.3512   -13.885    153.69   
1113312500  -16.157    150.56    12.264    154.97   -16.98   -7.3141   -13.907    153.72   
1118281250  -16.154    150.53    12.281    154.73   -16.976   -7.2496   -13.913    153.73   
1123250000  -16.179    150.53    12.258    154.57   -16.962   -7.3004   -13.926    153.55   
